frequency,s11_real,s11_imag,s12_real,s12_imag,s13_real,s13_imag,s14_real,s14_imag,s21_real,s21_imag,s22_real,s22_imag,s23_real,s23_imag,s24_real,s24_imag,s31_real,s31_imag,s32_real,s32_imag,s33_real,s33_imag,s34_real,s34_imag,s41_real,s41_imag,s42_real,s42_imag,s43_real,s43_imag,s44_real,s44_imag
0,-0.9791948508557351,7.86810899318963e-17,0.011907728140835976,3.862975507824961e-17,-0.004887332738666742,7.113081853344862e-19,-0.004897200261417519,7.124170365186269e-19,0.011907728140789704,3.8629755078248715e-17,-0.9792195958025801,7.868310442727789e-17,-0.0049276584321940545,7.148508068921451e-19,-0.0049226615843934885,7.141392854097903e-19,-0.0048873327386684045,7.113081853349159e-19,-0.004927658432201466,7.148508068930906e-19,-0.9633169118867835,7.651844307642248e-17,0.015128600678436062,3.7375727219173174e-17,-0.004897200261420081,7.124170365191805e-19,-0.0049226615843980335,7.14139285410398e-19,0.01512860067831864,3.737572721917662e-17,-0.9633323499686154,7.651967807797937e-17
1,-0.974109641278762,0.028254713596555674,0.01433162642397501,0.015919493189025625,-0.007902735733578057,-0.015876464970506748,-0.0069784230924457395,-0.013633057996150303,0.01433162642409302,0.015919493189005197,-0.9741265204385539,0.028271848541214402,-0.006999465644066782,-0.01362368210450114,-0.00792416618557914,-0.0158813771969917,-0.007902735734512648,-0.01587646496769519,-0.006999465644996744,-0.013623682101689289,-0.957656393927821,0.029529839519679864,0.017428324578152177,0.015629238868431764,-0.006978423093377471,-0.013633057993336185,-0.007924166186507313,-0.015881377194176444,0.017428324578226646,0.015629238868417446,-0.9576871087099587,0.029546186071084706
2,-0.9682950001203836,0.05240005483711638,0.01792083502244896,0.029685308992045134,-0.011538875743708462,-0.029094402934232703,-0.010182005531379415,-0.025168143852669828,0.017920835022450083,0.02968530899199437,-0.9683004387056537,0.05242161714173761,-0.010200855080759248,-0.025155970188022035,-0.011572947816352368,-0.02910323142953984,-0.011538875743042437,-0.02909440293400825,-0.010200855080091662,-0.025155970187798755,-0.9514813477411437,0.05441892110629015,0.020637464701147606,0.02916122747570806,-0.010182005530711784,-0.025168143852446735,-0.011572947815682624,-0.02910323142931741,0.020637464701147926,0.02916122747567648,-0.9514828884816825,0.054442694573734726
3,-0.9618978320723296,0.07439689309193512,0.0221814706038585,0.04226874315773755,-0.01562524052208638,-0.041319500912099454,-0.013869461993393917,-0.03582577544393695,0.02218147060386418,0.042268743157743045,-0.961894758111344,0.07441587391499833,-0.013887004321485957,-0.03581008215750352,-0.015666243908913115,-0.04132125022371825,-0.015625240522148153,-0.041319500912051124,-0.013887004321545693,-0.0358100821574551,-0.944774548723825,0.07713169013522625,0.024398606404728407,0.04183611392285965,-0.01386946199345611,-0.03582577544388821,-0.015666243908973226,-0.041321250223669705,0.024398606404731564,0.04183611392286285,-0.9447674869028846,0.07714195403322911
4,-0.9553355789264087,0.09509812923893465,0.026891147182480857,0.0540580277860187,-0.020176775221543947,-0.05288585549225844,-0.01805900233538357,-0.045892114289104474,0.026891147182506694,0.05405802778601939,-0.955331222019604,0.09511222949770748,-0.01807540411866579,-0.045872941432777606,-0.020218324582823136,-0.052880053782895585,-0.020176775221576543,-0.05288585549207967,-0.018075404118695584,-0.0458729414325999,-0.9378895126027064,0.09853776129727386,0.028702024697046916,0.05396554792688646,-0.01805900233541531,-0.0458921142889243,-0.02021832458285252,-0.052880053782716534,0.02870202469706342,0.053965547926885286,-0.9378836898873983,0.09854038805700349
5,-0.9485300666604474,0.11499610396736606,0.03205693726409667,0.065279352111476,-0.02522643351625321,-0.06394264715365794,-0.022765318480490942,-0.05548212540196186,0.03205693726410682,0.06527935211146965,-0.9485290912284959,0.11500882634943228,-0.02278082184610027,-0.055459590029416514,-0.025265552395690703,-0.06393194703054388,-0.025226433516224105,-0.06394264715359008,-0.022780821846070085,-0.05545959002934957,-0.9307205595544903,0.11912683967022789,0.03360978211639767,0.06565756691999934,-0.022765318480460924,-0.055482125401893324,-0.025265552395659894,-0.06393194703047649,0.03360978211640412,0.06565756691999455,-0.9307165958487637,0.11912542981322852
6,-0.941361790095547,0.13428056828188045,0.037714938749716875,0.07601562241523727,-0.03080563650991535,-0.0745468325383925,-0.028004884869780186,-0.06464081194186558,0.037714938749710866,0.0760156224152496,-0.9413643600745031,0.13429612263842472,-0.028019761112400145,-0.06461491103308523,-0.03084197994232407,-0.07453397231875394,-0.030805636509972645,-0.0745468325384386,-0.028019761112456874,-0.06461491103313034,-0.9231388185000658,0.13907897196000477,0.039150223976668216,0.07692156829926718,-0.02800488486983871,-0.06464081194191176,-0.03084197994238217,-0.07453397231879946,0.03915022397666529,0.0769215682992753,-0.9231369324553155,0.1390742128798435
7,-0.933760851419573,0.15301979855574266,0.04388214284140169,0.08628944761516341,-0.03693074970864701,-0.08470934194159069,-0.03378633583928554,-0.0733748092413149,0.04388214284139707,0.08628944761521004,-0.9337647321976013,0.15304036397504117,-0.03380081130643316,-0.07334540854834541,-0.03696538562309339,-0.08469609781828663,-0.036930749708844884,-0.08470934194164126,-0.03380081130662893,-0.07334540854839305,-0.9150746496128441,0.15845427369379628,0.04532102092311226,0.08774092085682347,-0.033786335839487786,-0.07337480924136434,-0.036965385623293934,-0.08469609781833325,0.045321020923113554,0.08774092085685202,-0.9150758851725318,0.1584466197180851
8,-0.9256940404247235,0.1712383727275,0.05055965498048504,0.09610050687838595,-0.04360327004843524,-0.09441978518055438,-0.040107472584508974,-0.08167111447089406,0.05055965498050387,0.09610050687846297,-0.9256967545957311,0.17126392563420767,-0.04012168058146784,-0.08163798021535268,-0.04363772580318411,-0.09440682235480716,-0.04360327004873647,-0.09441978518051673,-0.040121680581763644,-0.08163798021531077,-0.9064988927497288,0.17727255739804137,0.052105627235919924,0.0980937295792558,-0.04010747258481724,-0.0816711144708515,-0.04363772580348744,-0.09440682235476075,0.052105627235939006,0.09809372957930006,-0.9065043401726613,0.17726306180814275
9,-0.9171481071645129,0.1889425754062634,0.05773915562270398,0.10543837043364189,-0.050813358538245194,-0.1036584435928255,-0.04695636151363665,-0.08950764915961759,0.057739155622762425,0.10543837043373193,-0.9171480521133557,0.1889717240681798,-0.04697031815065203,-0.08947049781738425,-0.050849030464023066,-0.10364554416729384,-0.050813358538577665,-0.10365844359265933,-0.04697031815097558,-0.08947049781721517,-0.8974030686094888,0.19553813599648007,0.05948142570719559,0.10795677769666841,-0.04695636151397717,-0.08950764915944122,-0.05084903046435528,-0.10364554416711483,0.05948142570724078,0.1079567776967159,-0.8974133110474778,0.19552824886187625
10,-0.9081211941744607,0.20612868699687492,0.06540617076121757,0.11428717798202487,-0.058543034642305064,-0.11240196869688429,-0.05431340352533468,-0.09685887933100652,0.06540617076131942,0.11428717798210764,-0.9081179106837451,0.20615956477502023,-0.0543270115118501,-0.09681742873007505,-0.058580903070658434,-0.1123883645406071,-0.05854303464260233,-0.11240196869659495,-0.054327011512135245,-0.09681742872978577,-0.8877895179327545,0.21324701791666223,0.06742243760401972,0.11730609973756317,-0.0543134035256379,-0.09685887933070149,-0.0585809030709508,-0.11238836454030235,0.06742243760408889,0.11730609973760113,-0.887804536611403,0.21323819620479703
11,-0.8986192636883015,0.22278658307305316,0.07354139707653334,0.12262801835350402,-0.06676843533874574,-0.12062617667425114,-0.06215321236075215,-0.10369875424330297,0.07354139707667229,0.12262801835356213,-0.8986132585027028,0.22281746971308164,-0.06216628517865547,-0.10365276045568428,-0.06680898878226846,-0.12061085503453649,-0.06676843533896046,-0.12062617667387047,-0.0621662851788567,-0.10365276045530812,-0.8776674894289477,0.23038959847558327,0.07589995417805395,0.12611740121087306,-0.06215321236096896,-0.10369875424290163,-0.06680898878247299,-0.12061085503413947,0.07589995417814305,0.12611740121089096,-0.8776868144071179,0.23038304376888147
12,-0.8886545729058515,0.23890209582996003,0.0821213347088235,0.13044060222471668,-0.07546133229523991,-0.12830751798561896,-0.07044606636585002,-0.11000226037100001,0.08212133470898628,0.13044060222473924,-0.8886469899005889,0.2389317422207366,-0.07045835951672055,-0.10995153547854769,-0.07550461174365106,-0.12828944998816172,-0.07546133229534865,-0.12830751798518936,-0.07045835951681638,-0.10995153547812676,-0.867051697843189,0.24695244099782152,0.08488265208807697,0.13436670629058817,-0.07044606636595561,-0.1100022603705462,-0.07550461174374494,-0.12828944998771613,0.08488265208817589,0.13436670629058034,-0.8670746182809649,0.24694900127539654
13,-0.8782447948106475,0.25445889532396315,0.09111878075429564,0.1377045708051471,-0.0845901768286364,-0.13542392055533486,-0.07915898763211608,-0.11574626591942519,0.09111878075446693,0.13770457080512946,-0.878237091588678,0.25448662889309853,-0.07917022680983012,-0.11569068016820844,-0.08463587462072737,-0.13540220689134597,-0.08459017682863644,-0.13542392055489658,-0.07917022680981903,-0.11569068016778258,-0.8559616600934685,0.26291985271275786,0.09433672238727205,0.14203107761893988,-0.07915898763210596,-0.11574626591896102,-0.08463587462070707,-0.13540220689089352,0.09433672238737195,0.1420310776189036,-0.8559874017308479,0.26292003717184165
14,-0.8674122781194149,0.26944000301280946,0.10050334317534279,0.1444005046929189,-0.09412086442514103,-0.1419553111181821,-0.08825655243377413,-0.12090999342426492,0.10050334317551245,0.14440050469286084,-0.8674059707682238,0.2694657005259181,-0.08826645399596407,-0.12084946808200747,-0.09416843648923373,-0.14192925857918207,-0.09412086442504199,-0.14195531111776805,-0.08826645399585689,-0.1208494680816098,-0.844421171125808,0.2782752740303958,0.10422612187925205,0.14908926171243242,-0.08825655243365876,-0.12090999342382651,-0.0941684364891112,-0.14192925857875907,0.10422612187934135,0.14908926171237072,-0.8444490132904862,0.27827932382067605
15,-0.8561833174269013,0.2838289569443322,0.11024198547252823,0.15051066528692614,-0.10401733274030847,-0.14788395101314922,-0.09770151952077023,-0.12547528786790804,0.11024198547268274,0.15051066528683238,-0.8561798058440512,0.2838529512872472,-0.09770980271470017,-0.12540978437345368,-0.10406610196136278,-0.14785309880782824,-0.10401733274012874,-0.1478839510127835,-0.09770980271451629,-0.12540978437310554,-0.8324577445964777,0.293002421315243,0.11451292235893518,0.1555221951493622,-0.09770151952056821,-0.12547528786751988,-0.10406610196115741,-0.1478530988074567,0.1145129223590102,0.15552219514928203,-0.8324870803161065,0.2930103959742977
16,-0.8445874306951128,0.2976106633993716,0.12029957480638705,0.15601950973076842,-0.11424205610610999,-0.15319465189234616,-0.10745533615337613,-0.12942676464714242,0.12029957480651748,0.15601950973064574,-0.8445878949664315,0.29763362743618926,-0.10746172859526981,-0.12935627377934697,-0.11429129715599459,-0.15315876526394145,-0.11424205610587171,-0.15319465189204404,-0.10746172859503099,-0.129356273779063,-0.8201020092737983,0.3070861650107071,0.12515770933079634,0.16131336258127937,-0.10745533615310994,-0.12942676464682157,-0.1142912971557285,-0.15315876526363773,0.12515770933085132,0.1613133625811856,-0.8201323628357868,0.3070980220564403
17,-0.8326566686671389,0.3107719865697426,0.13063940735217752,0.16091402458650161,-0.12475647073735721,-0.15787490640664478,-0.11747856055057856,-0.13275188126247808,0.13063940735228133,0.16091402458635903,-0.8326620201996034,0.31079481874836523,-0.11748279906877257,-0.1326764143039218,-0.12480547405819248,-0.15783395129797942,-0.124756470737083,-0.1578749064064138,-0.11748279906850104,-0.132676414303708,-0.8073870942090308,0.3205131638551915,0.13611999090393978,0.16644902360650568,-0.11747856055027256,-0.13275188126223364,-0.12480547405788989,-0.1578339512977508,0.13611999090397223,0.16644902360640465,-0.8074181114719037,0.32052882159676355
18,-0.820424976979428,0.32330213113013784,0.14122369454073694,0.1651839201122728,-0.13552134943340804,-0.16191495500870556,-0.12773122505698156,-0.13544095660431496,0.14122369454081027,0.1651839201121167,-0.8204358482124202,0.323325855164361,-0.12773305387432116,-0.1353605392200306,-0.13556946583058366,-0.1618690635428217,-0.13552134943311694,-0.1619149550085432,-0.12773305387403597,-0.13536053921988422,-0.794348035074671,0.33327229407748526,0.14735859191720607,0.17091833341370405,-0.12773122505665574,-0.1354409566041437,-0.13556946583026422,-0.16186906354266534,0.14735859191721806,0.17091833341360163,-0.7943794591026885,0.3332916752645306
19,-0.8079276219626416,0.3351928670025451,0.15201400270701054,0.16882172003763307,-0.14649713646689805,-0.16530780295510242,-0.138173155144588,-0.13748715158937722,0.1520140027070528,0.16882172003747237,-0.8079443811471494,0.3352185504406628,-0.1381723229505108,-0.1374018203771078,-0.14654380534621925,-0.1652572361635356,-0.14649713646660623,-0.16530780295500466,-0.13817232295022785,-0.13740182037702448,-0.7810212229714063,0.3453549157282988,0.1588320198705818,0.1747133814186458,-0.13817315514426087,-0.1374871515892772,-0.14654380534590128,-0.16525723616344892,0.15883201987057194,0.1747133814185467,-0.7810528640413037,0.34537797359830963
20,-0.7952006830470006,0.346438636730593,0.1629716445289054,0.17182277417831116,-0.15764424901453894,-0.1680491975867952,-0.14876425360409712,-0.13888641964228768,0.162971644528919,0.17182277417815447,-0.7952234637590948,0.3464673289848931,-0.1487605105931039,-0.1387962209154753,-0.15768901366924762,-0.16799430931990084,-0.15764424901426052,-0.16804919758675468,-0.14876051059283543,-0.13879622091544636,-0.7674439064331648,0.356755014191308,0.17049879679995433,0.1778291683239006,-0.1487642536037838,-0.13888641964225093,-0.15768901366894456,-0.1679943093198744,0.17049879679992874,0.1778291683238089,-0.7674756123051484,0.35678174416565245
21,-0.782280609637118,0.3570365769027489,0.17405802390317102,0.17418521458883313,-0.16892334908271922,-0.1701375734858961,-0.1594647556912293,-0.1396374327239962,0.17405802390315933,0.17418521458868472,-0.7823093475637345,0.35706926513567094,-0.1594578512271818,-0.13954242293482996,-0.16896586221535242,-0.17007877769791768,-0.16892334908246243,-0.17013757348590286,-0.15945785122693662,-0.13954242293484595,-0.7536537499308966,0.3674692482677667,0.1823177556522768,0.18026353771252668,-0.1594647556909397,-0.1396374327240116,-0.1689658622150745,-0.1700787776979409,0.18231775565223785,0.1802635377124456,-0.7536853798192281,0.3674996889655552
22,-0.7692038377283299,0.3669864773548457,0.18523493743165448,0.1759098706581184,-0.18029558850064248,-0.17157397147834183,-0.17023545877295787,-0.13974148709982895,0.18523493743162073,0.17590987065798092,-0.769238309587685,0.36702405765693935,-0.17022514001150896,-0.1396417342995108,-0.18033561070394943,-0.17151171392852313,-0.18029558850041372,-0.17157397147838616,-0.17022514001129235,-0.1396417342995624,-0.7396884477142847,0.3774969294991991,0.1942483020577181,0.18201707446432788,-0.17023545877269866,-0.13974148709988696,-0.18033561070370252,-0.17151171392858724,0.19424830205766724,0.18201707446425935,-0.7397198516315798,0.37753115650283453
23,-0.7560064605444312,0.3762906957832303,0.19646483620327626,0.1770001545588098,-0.19172282874481336,-0.17236193634521918,-0.18103792866638269,-0.13920239221043276,0.1964648362032263,0.17700015455868803,-0.7560463217790218,0.3763339568048618,-0.18102394023129742,-0.13909797801088244,-0.19176022215038513,-0.17229667103084126,-0.19172282874461605,-0.17236193634529157,-0.18102394023111085,-0.13909797801095872,-0.7255853895031927,0.38683995157772916,0.20625064348536548,0.18309297923449905,-0.18103792866615884,-0.13920239221052264,-0.1917602221501722,-0.17229667103093388,0.20625064348530764,0.18309297923444584,-0.725616393468834,0.3868780668589873
24,-0.7427239473969083,0.38495404078874795,0.20771105153935926,0.17746192553627324,-0.2031678368892443,-0.1725073973313285,-0.1918346840665957,-0.1380263455386884,0.2077110515392963,0.17746192553616746,-0.742768766585892,0.3850036570816784,-0.19181676871731212,-0.13791736714184466,-0.20320255570989731,-0.1724395675354248,-0.2031678368890792,-0.17250739733141984,-0.19181676871715742,-0.1379173671419377,-0.7113813735600483,0.39550268404216105,0.21828598816328226,0.18349692592895578,-0.19183468406640794,-0.13802634553879967,-0.2032025557097196,-0.17243956753553677,0.2182859881632228,0.1834969259289137,-0.711411770420044,0.3955448033459238
25,-0.7293909053399513,0.3929836329765283,0.21893798811388937,0.17730333941455875,-0.21459445871885996,-0.17201853497905084,-0.20258936002016528,-0.1362217960800956,0.21893798811381732,0.17730333941447202,-0.7294401942169428,0.3930401655761574,-0.20256726015186474,-0.13610836805228455,-0.21462653799551462,-0.171948558575693,-0.2145944587187264,-0.17201853497915376,-0.20256726015174092,-0.1361083680523883,-0.6971123624666749,0.403491840893815,0.23031671618069005,0.18323690741695525,-0.20258936002001343,-0.13622179608022034,-0.21462653799537212,-0.1719485585758177,0.23031671618062996,0.18323690741692694,-0.6971419076485353,0.40353808078459674
26,-0.7160408787504854,0.40038875127092055,0.2301112875261548,0.17653468818379678,-0.22596776992295067,-0.17090563739103218,-0.21326685118839417,-0.13379929882775055,0.2301112875260768,0.17653468818372683,-0.7160941173699525,0.4004526533988968,-0.21324031095678903,-0.13368155440259716,-0.22599731344623897,-0.17083389593496362,-0.22596776992284806,-0.17090563739114062,-0.21324031095669438,-0.13368155440270424,-0.6828132771225464,0.41081633210090535,0.24230652506436007,0.1823230734944729,-0.2132668511882766,-0.13379929882788247,-0.22599731344612917,-0.17083389593509307,0.2423065250642999,0.182323073494455,-0.682841688446831,0.4108667978554929
27,-0.7027061825493487,0.40718066982493273,0.24119796507121452,0.1751682334439198,-0.2372542062515573,-0.16918094868526723,-0.22383343557331312,-0.13077136252369406,0.24119796507113633,0.17516823344386612,-0.7027628395905869,0.40725229595565665,-0.22380220342138482,-0.13064945431023045,-0.23728137435772934,-0.16910777977333086,-0.23725420625147992,-0.1691809486853748,-0.2238022034213144,-0.130649454310337,-0.6685178248524389,0.4174871039931755,0.25422055193874804,0.18076756422572127,-0.22383343557322455,-0.13077136252382432,-0.2372813743576477,-0.16910777977345853,0.25422055193869275,0.18076756422571516,-0.6685447854685838,0.4175418790901023
28,-0.6894177653255446,0.4133724896160373,0.2521665221586563,0.17321803668580918,-0.2484216735367299,-0.1668585121181746,-0.23425687939268433,-0.12715229277948037,0.25216652215858104,0.17321803668576968,-0.6894773138126522,0.41345210649803094,-0.2342207107649154,-0.12702639282901293,-0.24844667126697395,-0.1667842045163918,-0.2484216735366763,-0.16685851211827796,-0.23422071076486678,-0.12702639282911407,-0.6542583579347592,0.4235169731039723,0.26602547419317935,0.17858434114668292,-0.23425687939262274,-0.12715229277960508,-0.2484466712669167,-0.166784204516513,0.2660254741931288,0.17858434114668484,-0.6542835214882624,0.42357611071877654
29,-0.6762050991010342,0.4189789678825696,0.2629870365826618,0.17069978880167358,-0.25943963852873186,-0.1639540100946304,-0.2445065238495372,-0.12295803251728447,0.2629870365825898,0.17069978880164716,-0.6762670279920373,0.41906676642038854,-0.2444651839024632,-0.12282833176251233,-0.25946270448019965,-0.1638788011567924,-0.25943963852869695,-0.1639540100947268,-0.24446518390243246,-0.12282833176260613,-0.6400657592729925,0.4289204569543233,0.27768959041306224,0.1757890183397444,-0.24450652384949756,-0.12295803251740119,-0.25946270448016373,-0.16387880115690542,0.2776895904130161,0.17578901833975402,-0.6400887565047629,0.42898397361157614
