CITIFILE A.01.01
#Momentum: B.12.070 (*) built: Apr 12 2023 
#Momentum Date and Time: Wed Jul 24 15:09:21 2024

NAME Momentum.SP

#  mode: MW    project: proj

#eesof Port[1] P1
#eesof Port[2] P2
#eesof Port[3] P3

CONSTANT NBR_OF_PORTS 3

CONSTANT NORMALIZATION 1

VAR freq MAG 151

DATA S[1,1] RI
DATA S[1,2] RI
DATA S[1,3] RI
DATA S[2,1] RI
DATA S[2,2] RI
DATA S[2,3] RI
DATA S[3,1] RI
DATA S[3,2] RI
DATA S[3,3] RI
DATA PORTZ[1] RI
DATA PORTZ[2] RI
DATA PORTZ[3] RI

VAR_LIST_BEGIN
	 0
	 100000000
	 200000000
	 300000000
	 400000000
	 500000000
	 600000000
	 700000000
	 800000000
	 900000000
	 1000000000
	 1100000000
	 1200000000
	 1300000000
	 1400000000
	 1500000000
	 1600000000
	 1700000000
	 1800000000
	 1900000000
	 2000000000
	 2100000000
	 2200000000
	 2300000000
	 2400000000
	 2500000000
	 2600000000
	 2700000000
	 2800000000
	 2900000000
	 3000000000
	 3100000000
	 3200000000
	 3300000000
	 3400000000
	 3500000000
	 3600000000
	 3700000000
	 3800000000
	 3900000000
	 4000000000
	 4100000000
	 4200000000
	 4300000000
	 4400000000
	 4500000000
	 4600000000
	 4700000000
	 4800000000
	 4900000000
	 5000000000
	 5100000000
	 5200000000
	 5300000000
	 5400000000
	 5500000000
	 5600000000
	 5700000000
	 5800000000
	 5900000000
	 6000000000
	 6100000000
	 6200000000
	 6300000000
	 6400000000
	 6500000000
	 6600000000
	 6700000000
	 6800000000
	 6900000000
	 7000000000
	 7100000000
	 7200000000
	 7300000000
	 7400000000
	 7500000000
	 7600000000
	 7700000000
	 7800000000
	 7900000000
	 8000000000
	 8100000000
	 8200000000
	 8300000000
	 8400000000
	 8500000000
	 8600000000
	 8700000000
	 8800000000
	 8900000000
	 9000000000
	 9100000000
	 9200000000
	 9300000000
	 9400000000
	 9500000000
	 9600000000
	 9700000000
	 9800000000
	 9900000000
	 1e+10
	 1.01e+10
	 1.02e+10
	 1.03e+10
	 1.04e+10
	 1.05e+10
	 1.06e+10
	 1.07e+10
	 1.08e+10
	 1.09e+10
	 1.1e+10
	 1.11e+10
	 1.12e+10
	 1.13e+10
	 1.14e+10
	 1.15e+10
	 1.16e+10
	 1.17e+10
	 1.18e+10
	 1.19e+10
	 1.2e+10
	 1.21e+10
	 1.22e+10
	 1.23e+10
	 1.24e+10
	 1.25e+10
	 1.26e+10
	 1.27e+10
	 1.28e+10
	 1.29e+10
	 1.3e+10
	 1.31e+10
	 1.32e+10
	 1.33e+10
	 1.34e+10
	 1.35e+10
	 1.36e+10
	 1.37e+10
	 1.38e+10
	 1.39e+10
	 1.4e+10
	 1.41e+10
	 1.42e+10
	 1.43e+10
	 1.44e+10
	 1.45e+10
	 1.46e+10
	 1.47e+10
	 1.48e+10
	 1.49e+10
	 1.5e+10
VAR_LIST_END

BEGIN
	-0.333152539,	-0
	-0.374068376,	-0.159765994
	-0.472012517,	-0.269235804
	-0.581107816,	-0.319549836
	-0.674825662,	-0.329388006
	-0.747129983,	-0.318385253
	-0.800800731,	-0.298786133
	-0.840376935,	-0.276808392
	-0.869783739,	-0.255260243
	-0.891931791,	-0.235260181
	-0.908870579,	-0.217144352
	-0.922025485,	-0.200905244
	-0.932391145,	-0.186397666
	-0.940668437,	-0.173433801
	-0.947359119,	-0.161822659
	-0.952826387,	-0.151389575
	-0.957338204,	-0.141979101
	-0.961094313,	-0.133457329
	-0.964245942,	-0.125709407
	-0.966908977,	-0.118637382
	-0.969173276,	-0.112157785
	-0.971109326,	-0.106199286
	-0.97277281,	-0.100701271
	-0.974208337,	-0.0956115205
	-0.975451949,	-0.090884867
	-0.976532847,	-0.0864826327
	-0.977475017,	-0.0823710715
	-0.978298137,	-0.0785212333
	-0.979018716,	-0.0749072265
	-0.979650469,	-0.0715066466
	-0.980204859,	-0.0683000669
	-0.980691707,	-0.0652697863
	-0.98111928,	-0.0624004428
	-0.98149462,	-0.0596784629
	-0.981823833,	-0.0570914266
	-0.98211206,	-0.0546288195
	-0.982363908,	-0.0522803973
	-0.982583256,	-0.0500375576
	-0.982773529,	-0.0478923009
	-0.982937673,	-0.0458377014
	-0.983078354,	-0.0438669723
	-0.983197834,	-0.0419744563
	-0.983298146,	-0.0401547981
	-0.983381107,	-0.0384029789
	-0.983448307,	-0.0367145486
	-0.983501134,	-0.0350856327
	-0.98354088,	-0.033512292
	-0.983568662,	-0.0319911608
	-0.983585497,	-0.0305190182
	-0.983592276,	-0.0290930791
	-0.983589814,	-0.0277106528
	-0.983578859,	-0.0263691336
	-0.983560065,	-0.0250662823
	-0.983534029,	-0.0237999655
	-0.983501294,	-0.0225682024
	-0.983462355,	-0.0213690961
	-0.983417648,	-0.0202010427
	-0.983367585,	-0.0190623882
	-0.983312535,	-0.0179516399
	-0.983252829,	-0.0168674546
	-0.98318878,	-0.0158084234
	-0.983120667,	-0.0147733769
	-0.983048747,	-0.0137611193
	-0.982973248,	-0.0127707253
	-0.982894394,	-0.0118010356
	-0.982812383,	-0.0108511017
	-0.982727387,	-0.00992017231
	-0.982639582,	-0.00900721555
	-0.982549114,	-0.00811157014
	-0.982456127,	-0.00723245027
	-0.982360751,	-0.0063691912
	-0.982263106,	-0.00552098396
	-0.98216329,	-0.00468736541
	-0.982061421,	-0.00386757433
	-0.981957579,	-0.00306118562
	-0.981851864,	-0.00226747073
	-0.981744401,	-0.00148608281
	-0.981635214,	-0.000716477191
	-0.98152436,	 4.18262802e-05
	-0.9814119,	 0.000789185715
	-0.981297895,	 0.00152606332
	-0.981182398,	 0.00225282065
	-0.981065459,	 0.00296995732
	-0.980947124,	 0.0036776822
	-0.980827436,	 0.00437645985
	-0.980706433,	 0.00506658421
	-0.980584151,	 0.00574837412
	-0.980460622,	 0.00642213076
	-0.980335876,	 0.00708814635
	-0.980209939,	 0.00774673548
	-0.980082839,	 0.0083980562
	-0.979954594,	 0.00904250886
	-0.979825228,	 0.0096801926
	-0.979694754,	 0.0103114836
	-0.97956293,	 0.0109362315
	-0.979430317,	 0.0115552326
	-0.979296638,	 0.0121684622
	-0.97916191,	 0.0127760006
	-0.979026128,	 0.0133781042
	-0.978889502,	 0.013975151
	-0.978751666,	 0.0145670038
	-0.978612788,	 0.0151539964
	-0.978472909,	 0.0157362788
	-0.97833202,	 0.0163139672
	-0.978190122,	 0.0168872166
	-0.978047198,	 0.0174562149
	-0.977903273,	 0.0180211397
	-0.977758381,	 0.0185820885
	-0.977612425,	 0.0191391709
	-0.977465459,	 0.0196925811
	-0.977317472,	 0.0202424538
	-0.977168462,	 0.0207888544
	-0.977018423,	 0.0213319416
	-0.976867382,	 0.0218718713
	-0.976715348,	 0.0224084157
	-0.976562274,	 0.0229419639
	-0.976408163,	 0.0234725298
	-0.976253007,	 0.0240003385
	-0.976096782,	 0.0245253869
	-0.975939491,	 0.0250477755
	-0.97578112,	 0.0255676548
	-0.97562166,	 0.0260850846
	-0.975461099,	 0.0266001558
	-0.975299431,	 0.0271129446
	-0.97513664,	 0.0276235369
	-0.974972715,	 0.0281320126
	-0.97480764,	 0.0286384772
	-0.974641412,	 0.0291429229
	-0.974474006,	 0.029645507
	-0.974305412,	 0.0301462735
	-0.974135614,	 0.0306452926
	-0.973964593,	 0.0311426599
	-0.97379232,	 0.0316383825
	-0.973618819,	 0.0321325628
	-0.973444054,	 0.0326252327
	-0.973267999,	 0.0331165077
	-0.973090594,	 0.0336064746
	-0.972911916,	 0.0340950838
	-0.972731899,	 0.0345824478
	-0.972550524,	 0.0350686225
	-0.972367766,	 0.035553689
	-0.97218362,	 0.0360376255
	-0.971998052,	 0.0365205576
	-0.971811037,	 0.0370025385
	-0.971622573,	 0.0374835418
	-0.971432614,	 0.0379637182
	-0.97124116,	 0.0384430143
	-0.971048165,	 0.0389215914
	-0.970853623,	 0.0393993927
	-0.970657504,	 0.0398765003
	-0.970459863,	 0.040352888
END
BEGIN
	 0.666563453,	-0
	 0.624797898,	-0.161322148
	 0.526341507,	-0.27184111
	 0.416781645,	-0.323136902
	 0.322592663,	-0.33387242
	 0.24982105,	-0.323683471
	 0.195698236,	-0.304827643
	 0.155690663,	-0.283537147
	 0.125874484,	-0.262632364
	 0.103338214,	-0.243241133
	 0.0860306656,	-0.225706552
	 0.0725245281,	-0.210026274
	 0.0618232936,	-0.196058977
	 0.0532243892,	-0.183619788
	 0.046224547,	-0.172519998
	 0.040459267,	-0.162586734
	 0.0356594484,	-0.153665987
	 0.0316243621,	-0.145625015
	 0.0282019265,	-0.138349932
	 0.0252755084,	-0.131743587
	 0.0227545975,	-0.125723192
	 0.020568133,	-0.120218001
	 0.0186599245,	-0.115167898
	 0.0169849155,	-0.110521101
	 0.0155066582,	-0.106232827
	 0.0141955952,	-0.102264735
	 0.013027415,	-0.0985833825
	 0.0119821525,	-0.0951600852
	 0.0110430309,	-0.0919691966
	 0.0101960934,	-0.0889885316
	 0.00942966171,	-0.086198861
	 0.00873371118,	-0.0835826674
	 0.00809979076,	-0.0811247553
	 0.00752068976,	-0.0788117039
	 0.00699014171,	-0.0766312359
	 0.0065028661,	-0.074572965
	 0.00605411525,	-0.0726267721
	 0.00563988646,	-0.0707841666
	 0.0052566347,	-0.0690372558
	 0.00490130896,	-0.0673792105
	 0.00457113628,	-0.0658033399
	 0.00426375983,	-0.0643040716
	 0.00397705691,	-0.0628761325
	 0.00370912262,	-0.0615145834
	 0.00345828503,	-0.0602150475
	 0.00322308258,	-0.0589737172
	 0.00300214911,	-0.0577867223
	 0.00279429834,	-0.0566507591
	 0.00259844642,	-0.0555626674
	 0.00241364264,	-0.0545197172
	 0.00223901214,	-0.0535192722
	 0.00207374819,	-0.0525587811
	 0.00191714298,	-0.0516360532
	 0.00176854631,	-0.0507490034
	 0.0016273667,	-0.0498956965
	 0.00149305901,	-0.0490742811
	 0.0013651439,	-0.0482831932
	 0.00124316395,	-0.0475208221
	 0.00112670721,	-0.0467857144
	 0.0010154022,	-0.0460765627
	 0.000908891243,	-0.0453919975
	 0.000806860501,	-0.0447308835
	 0.000709011404,	-0.0440920606
	 0.000615085642,	-0.0434746327
	 0.000524819282,	-0.0428774769
	 0.000437980535,	-0.0422996758
	 0.000354366561,	-0.0417405044
	 0.000273763693,	-0.0411989662
	 0.000196002509,	-0.040674424
	 0.000120900483,	-0.0401661223
	 4.83008884e-05,	-0.0396734223
	-2.19484914e-05,	-0.0391955467
	-8.99698606e-05,	-0.0387320586
	-0.00015590603,	-0.0382822124
	-0.000219861978,	-0.0378456141
	-0.00028196086,	-0.0374215535
	-0.000342360007,	-0.0370096793
	-0.000401128022,	-0.0366095088
	-0.000458335998,	-0.0362205865
	-0.000514068443,	-0.0358425715
	-0.000568411117,	-0.0354750266
	-0.000621440952,	-0.0351176097
	-0.000673237596,	-0.0347698475
	-0.00072386335,	-0.0344315446
	-0.000773389112,	-0.034102262
	-0.000821874824,	-0.033781724
	-0.000869379028,	-0.0334696349
	-0.000915956042,	-0.033165703
	-0.000961657733,	-0.0328696602
	-0.00100653402,	-0.0325812134
	-0.00105062742,	-0.0323002188
	-0.00109398605,	-0.032026306
	-0.00113664804,	-0.0317593785
	-0.00117865705,	-0.0314990888
	-0.00121994608,	-0.0312458432
	-0.00126078193,	-0.0309983666
	-0.00130107223,	-0.0307569692
	-0.00134086622,	-0.030521558
	-0.00138014348,	-0.030291951
	-0.00141909196,	-0.0300675686
	-0.00145750056,	-0.0298489048
	-0.00149548817,	-0.0296354811
	-0.00153312371,	-0.0294271746
	-0.00157041262,	-0.0292238742
	-0.00160737892,	-0.029025442
	-0.00164410582,	-0.0288314992
	-0.00168049504,	-0.0286423689
	-0.0017165346,	-0.0284576852
	-0.00175247655,	-0.0282773813
	-0.00178820001,	-0.028101293
	-0.0018237193,	-0.0279293114
	-0.00185905613,	-0.0277613929
	-0.00189422791,	-0.0275974165
	-0.00192917183,	-0.0274372509
	-0.00196409975,	-0.0272808144
	-0.00199891733,	-0.0271279929
	-0.00203364146,	-0.0269787808
	-0.00206829502,	-0.0268329722
	-0.00210287399,	-0.0266905929
	-0.00213740283,	-0.0265515517
	-0.00217189401,	-0.0264157196
	-0.00220636154,	-0.0262830511
	-0.00224081563,	-0.0261534767
	-0.00227527475,	-0.0260269253
	-0.00230974833,	-0.0259033324
	-0.00234424845,	-0.0257826344
	-0.00237878588,	-0.0256647449
	-0.0024133753,	-0.0255496792
	-0.0024480249,	-0.025437305
	-0.00248274682,	-0.0253275917
	-0.00251755196,	-0.0252204853
	-0.00255244972,	-0.0251159098
	-0.00258748017,	-0.025013859
	-0.00262259682,	-0.0249142685
	-0.00265783975,	-0.0248171103
	-0.00269321624,	-0.0247222911
	-0.00272878823,	-0.0246298544
	-0.00276446157,	-0.0245396247
	-0.00280029758,	-0.0244516276
	-0.00283630573,	-0.0243658225
	-0.0028724937,	-0.0242821476
	-0.00290887405,	-0.0242006327
	-0.0029454548,	-0.024121173
	-0.00298224313,	-0.024043733
	-0.00301925393,	-0.0239683444
	-0.00305648872,	-0.0238948851
	-0.00309396458,	-0.02382341
	-0.00313168191,	-0.0237537875
	-0.00316965723,	-0.0236860762
	-0.00320789687,	-0.0236202123
	-0.00324633755,	-0.0235561274
END
BEGIN
	 0.666589086,	-0
	 0.624907932,	-0.161185361
	 0.526504343,	-0.271625754
	 0.416986047,	-0.322853047
	 0.322833406,	-0.333526417
	 0.2500946,	-0.323279774
	 0.196001944,	-0.304369542
	 0.156022433,	-0.283027177
	 0.126232606,	-0.26207253
	 0.103721261,	-0.242633064
	 0.0864374334,	-0.225051596
	 0.0729539866,	-0.209325566
	 0.0622745532,	-0.195313489
	 0.0536966749,	-0.182830359
	 0.0467171783,	-0.171687364
	 0.0409716428,	-0.161711542
	 0.0361910344,	-0.152748813
	 0.0321746813,	-0.144666375
	 0.0287705512,	-0.137350289
	 0.0258620538,	-0.130703359
	 0.0233587162,	-0.124642758
	 0.0211895107,	-0.119097704
	 0.0192982762,	-0.114008053
	 0.0176399826,	-0.109321994
	 0.0161782054,	-0.10499472
	 0.0148834085,	-0.100987868
	 0.0137312997,	-0.0972679746
	 0.0127019314,	-0.093806338
	 0.0117785429,	-0.0905772949
	 0.0109471921,	-0.0875586446
	 0.0101962144,	-0.0847311435
	 0.00951559753,	-0.0820772611
	 0.00889690215,	-0.0795817897
	 0.00833292852,	-0.0772312964
	 0.00781742021,	-0.0750134938
	 0.00734510622,	-0.0729179851
	 0.00691124788,	-0.0709346417
	 0.00651185085,	-0.0690549641
	 0.00614337814,	-0.0672710509
	 0.00580278645,	-0.0655760647
	 0.00548730972,	-0.0639633073
	 0.00519459791,	-0.0624271987
	 0.00492253478,	-0.0609624588
	 0.00466922159,	-0.0595641419
	 0.00443299235,	-0.0582278647
	 0.00421239115,	-0.0569498133
	 0.00400605729,	-0.0557261116
	 0.00381280974,	-0.0545534501
	 0.00363156977,	-0.0534286633
	 0.0034613915,	-0.0523490155
	 0.00330140481,	-0.0513118653
	 0.00315080763,	-0.0503146565
	 0.00300889663,	-0.0493551935
	 0.00287502594,	-0.0484313863
	 0.00274860835,	-0.0475412953
	 0.00262910287,	-0.0466830644
	 0.0025160342,	-0.0458551253
	 0.00240894822,	-0.0450558622
	 0.00230743712,	-0.0442838175
	 0.00221113385,	-0.0435376804
	 0.00211968456,	-0.0428160775
	 0.00203277912,	-0.0421178696
	 0.00195012261,	-0.0414418929
	 0.00187146024,	-0.0407872475
	 0.00179653167,	-0.0401528069
	 0.00172510855,	-0.0395376502
	 0.00165699131,	-0.0389410486
	 0.00159197005,	-0.0383620026
	 0.001529878,	-0.0377998709
	 0.00147053765,	-0.0372538952
	 0.00141379406,	-0.0367234331
	 0.00135949829,	-0.0362077038
	 0.00130753214,	-0.0357062675
	 0.00125775335,	-0.0352183742
	 0.00121006199,	-0.034743627
	 0.00116433635,	-0.034281313
	 0.00112042267,	-0.0338310804
	 0.00107825839,	-0.0333924418
	 0.00103777439,	-0.0329649378
	 0.00099888919,	-0.0325482247
	 0.000961519853,	-0.0321418615
	 0.000925592528,	-0.0317455032
	 0.00089103075,	-0.0313586736
	 0.000857774949,	-0.0309811738
	 0.00082575743,	-0.030612562
	 0.000794921196,	-0.0302525591
	 0.000765211191,	-0.0299008632
	 0.000736575511,	-0.0295571879
	 0.000708965488,	-0.0292212579
	 0.000682334215,	-0.0288927763
	 0.000656641814,	-0.028571595
	 0.000631843484,	-0.0282573378
	 0.000607904899,	-0.0279499116
	 0.000584786479,	-0.0276489641
	 0.00056259144,	-0.0273548762
	 0.000540991664,	-0.0270664126
	 0.000520117894,	-0.0267838509
	 0.000499942964,	-0.0265071097
	 0.000480450289,	-0.0262359799
	 0.00046146013,	-0.0259699335
	 0.00044322109,	-0.0257094051
	 0.000425600659,	-0.0254539324
	 0.000408537045,	-0.0252033886
	 0.000392027866,	-0.0249576626
	 0.000376053345,	-0.0247166132
	 0.000360602579,	-0.0244800403
	 0.000345645247,	-0.0242478472
	 0.000331152233,	-0.0240199114
	 0.000317149036,	-0.0237961335
	 0.000303592668,	-0.023576343
	 0.000290476252,	-0.0233604206
	 0.000277787927,	-0.0231483106
	 0.000265514749,	-0.0229398747
	 0.000253689645,	-0.0227349489
	 0.000242067109,	-0.0225337566
	 0.000230806946,	-0.02233595
	 0.000219895917,	-0.0221415204
	 0.000209315939,	-0.02195026
	 0.000199075701,	-0.0217621885
	 0.000189154807,	-0.0215772124
	 0.000179545921,	-0.0213951993
	 0.000170239443,	-0.0212161
	 0.000161230144,	-0.0210398401
	 0.000152504217,	-0.0208663482
	 0.000144056947,	-0.0206955548
	 0.000135881149,	-0.0205273927
	 0.000127971334,	-0.0203617716
	 0.000120316911,	-0.0201987038
	 0.000112915745,	-0.0200380528
	 0.000105760571,	-0.0198797842
	 9.88457642e-05,	-0.0197238406
	 9.21676473e-05,	-0.0195701417
	 8.57263701e-05,	-0.0194186832
	 7.95013049e-05,	-0.0192693857
	 7.34948703e-05,	-0.0191222231
	 6.77062903e-05,	-0.018977098
	 6.21460084e-05,	-0.0188339635
	 5.67769155e-05,	-0.0186928191
	 5.16115346e-05,	-0.0185535962
	 4.66462787e-05,	-0.0184162506
	 4.18799638e-05,	-0.0182807165
	 3.73045103e-05,	-0.0181470202
	 3.29200524e-05,	-0.0180150537
	 2.87256389e-05,	-0.0178847774
	 2.47113761e-05,	-0.01775622
	 2.0884491e-05,	-0.0176292551
	 1.72326417e-05,	-0.0175039351
	 1.37644115e-05,	-0.017380124
	 1.04689652e-05,	-0.0172578781
	 7.34732653e-06,	-0.0171371306
	 4.36839347e-06,	-0.0170178914
END
BEGIN
	 0.666563453,	-0
	 0.624797898,	-0.161322148
	 0.526341507,	-0.27184111
	 0.416781645,	-0.323136902
	 0.322592663,	-0.33387242
	 0.24982105,	-0.323683471
	 0.195698236,	-0.304827643
	 0.155690663,	-0.283537147
	 0.125874484,	-0.262632364
	 0.103338214,	-0.243241133
	 0.0860306656,	-0.225706552
	 0.0725245281,	-0.210026274
	 0.0618232936,	-0.196058977
	 0.0532243892,	-0.183619788
	 0.046224547,	-0.172519998
	 0.040459267,	-0.162586734
	 0.0356594484,	-0.153665987
	 0.0316243621,	-0.145625015
	 0.0282019265,	-0.138349932
	 0.0252755084,	-0.131743587
	 0.0227545975,	-0.125723192
	 0.020568133,	-0.120218001
	 0.0186599245,	-0.115167898
	 0.0169849155,	-0.110521101
	 0.0155066582,	-0.106232827
	 0.0141955952,	-0.102264735
	 0.013027415,	-0.0985833825
	 0.0119821525,	-0.0951600852
	 0.0110430309,	-0.0919691966
	 0.0101960934,	-0.0889885316
	 0.00942966171,	-0.086198861
	 0.00873371118,	-0.0835826674
	 0.00809979076,	-0.0811247553
	 0.00752068976,	-0.0788117039
	 0.00699014171,	-0.0766312359
	 0.0065028661,	-0.074572965
	 0.00605411525,	-0.0726267721
	 0.00563988646,	-0.0707841666
	 0.0052566347,	-0.0690372558
	 0.00490130896,	-0.0673792105
	 0.00457113628,	-0.0658033399
	 0.00426375983,	-0.0643040716
	 0.00397705691,	-0.0628761325
	 0.00370912262,	-0.0615145834
	 0.00345828503,	-0.0602150475
	 0.00322308258,	-0.0589737172
	 0.00300214911,	-0.0577867223
	 0.00279429834,	-0.0566507591
	 0.00259844642,	-0.0555626674
	 0.00241364264,	-0.0545197172
	 0.00223901214,	-0.0535192722
	 0.00207374819,	-0.0525587811
	 0.00191714298,	-0.0516360532
	 0.00176854631,	-0.0507490034
	 0.0016273667,	-0.0498956965
	 0.00149305901,	-0.0490742811
	 0.0013651439,	-0.0482831932
	 0.00124316395,	-0.0475208221
	 0.00112670721,	-0.0467857144
	 0.0010154022,	-0.0460765627
	 0.000908891243,	-0.0453919975
	 0.000806860501,	-0.0447308835
	 0.000709011404,	-0.0440920606
	 0.000615085642,	-0.0434746327
	 0.000524819282,	-0.0428774769
	 0.000437980535,	-0.0422996758
	 0.000354366561,	-0.0417405044
	 0.000273763693,	-0.0411989662
	 0.000196002509,	-0.040674424
	 0.000120900483,	-0.0401661223
	 4.83008884e-05,	-0.0396734223
	-2.19484914e-05,	-0.0391955467
	-8.99698606e-05,	-0.0387320586
	-0.00015590603,	-0.0382822124
	-0.000219861978,	-0.0378456141
	-0.00028196086,	-0.0374215535
	-0.000342360007,	-0.0370096793
	-0.000401128022,	-0.0366095088
	-0.000458335998,	-0.0362205865
	-0.000514068443,	-0.0358425715
	-0.000568411117,	-0.0354750266
	-0.000621440952,	-0.0351176097
	-0.000673237596,	-0.0347698475
	-0.00072386335,	-0.0344315446
	-0.000773389112,	-0.034102262
	-0.000821874824,	-0.033781724
	-0.000869379028,	-0.0334696349
	-0.000915956042,	-0.033165703
	-0.000961657733,	-0.0328696602
	-0.00100653402,	-0.0325812134
	-0.00105062742,	-0.0323002188
	-0.00109398605,	-0.032026306
	-0.00113664804,	-0.0317593785
	-0.00117865705,	-0.0314990888
	-0.00121994608,	-0.0312458432
	-0.00126078193,	-0.0309983666
	-0.00130107223,	-0.0307569692
	-0.00134086622,	-0.030521558
	-0.00138014348,	-0.030291951
	-0.00141909196,	-0.0300675686
	-0.00145750056,	-0.0298489048
	-0.00149548817,	-0.0296354811
	-0.00153312371,	-0.0294271746
	-0.00157041262,	-0.0292238742
	-0.00160737892,	-0.029025442
	-0.00164410582,	-0.0288314992
	-0.00168049504,	-0.0286423689
	-0.0017165346,	-0.0284576852
	-0.00175247655,	-0.0282773813
	-0.00178820001,	-0.028101293
	-0.0018237193,	-0.0279293114
	-0.00185905613,	-0.0277613929
	-0.00189422791,	-0.0275974165
	-0.00192917183,	-0.0274372509
	-0.00196409975,	-0.0272808144
	-0.00199891733,	-0.0271279929
	-0.00203364146,	-0.0269787808
	-0.00206829502,	-0.0268329722
	-0.00210287399,	-0.0266905929
	-0.00213740283,	-0.0265515517
	-0.00217189401,	-0.0264157196
	-0.00220636154,	-0.0262830511
	-0.00224081563,	-0.0261534767
	-0.00227527475,	-0.0260269253
	-0.00230974833,	-0.0259033324
	-0.00234424845,	-0.0257826344
	-0.00237878588,	-0.0256647449
	-0.0024133753,	-0.0255496792
	-0.0024480249,	-0.025437305
	-0.00248274682,	-0.0253275917
	-0.00251755196,	-0.0252204853
	-0.00255244972,	-0.0251159098
